# Gen Frequency (Hz), Gen Level (dBm), SA Level (dBm), Osc Voltage (V), S21 Gen-Sa (dB), S21 Gen-Det (dB), Det Level (dBm)
2.000000000000000000e+09,1.500000000000000000e+01,1.085668849945068359e+01,3.567335999999999840e-01,-3.780900904735452706e+00,-3.848752433365759895e+00,1.092454002808099034e+01
2.000000000000000000e+09,1.400000000000000000e+01,9.918917655944824219e+00,3.055319999999999703e-01,-3.780900904735452706e+00,-3.848752433365759895e+00,9.986769184575130964e+00
2.000000000000000000e+09,1.300000000000000000e+01,8.952975273132324219e+00,2.587896000000001195e-01,-3.780900904735452706e+00,-3.848752433365759895e+00,9.020826801762630964e+00
2.000000000000000000e+09,1.200000000000000000e+01,7.965701103210449219e+00,2.198904000000000969e-01,-3.780900904735452706e+00,-3.848752433365759895e+00,8.033552631840755964e+00
2.000000000000000000e+09,1.100000000000000000e+01,6.976428031921386719e+00,1.859312000000000187e-01,-3.780900904735452706e+00,-3.848752433365759895e+00,7.044279560551693464e+00
2.000000000000000000e+09,1.000000000000000000e+01,5.984362602233886719e+00,1.523347999999999924e-01,-3.780900904735452706e+00,-3.848752433365759895e+00,6.052214130864193464e+00
2.000000000000000000e+09,9.000000000000000000e+00,4.980181694030761719e+00,1.240740000000000454e-01,-3.780900904735452706e+00,-3.848752433365759895e+00,5.048033222661068464e+00
2.000000000000000000e+09,8.000000000000000000e+00,3.983023643493652344e+00,1.007762000000000380e-01,-3.780900904735452706e+00,-3.848752433365759895e+00,4.050875172123959089e+00
2.000000000000000000e+09,7.000000000000000000e+00,2.974299430847167969e+00,7.876539999999999930e-02,-3.780900904735452706e+00,-3.848752433365759895e+00,3.042150959477475158e+00
2.000000000000000000e+09,6.000000000000000000e+00,1.969779014587402344e+00,6.055460000000002785e-02,-3.780900904735452706e+00,-3.848752433365759895e+00,2.037630543217709533e+00
2.000000000000000000e+09,5.000000000000000000e+00,9.694470763206481934e-01,4.553151999999999200e-02,-3.780900904735452706e+00,-3.848752433365759895e+00,1.037298604950955383e+00
2.000000000000000000e+09,4.000000000000000000e+00,-4.086785018444061279e-02,3.232704000000000133e-02,-3.780900904735452706e+00,-3.848752433365759895e+00,2.698367844586657682e-02
2.000000000000000000e+09,3.000000000000000000e+00,-1.045788764953613281e+00,2.205752000000000060e-02,-3.780900904735452706e+00,-3.848752433365759895e+00,-9.779372363233060916e-01
2.000000000000000000e+09,2.000000000000000000e+00,-2.045628547668457031e+00,1.404204000000000216e-02,-3.780900904735452706e+00,-3.848752433365759895e+00,-1.977777019038149842e+00
2.000000000000000000e+09,1.000000000000000000e+00,-3.065785408020019531e+00,8.397980000000001069e-03,-3.780900904735452706e+00,-3.848752433365759895e+00,-2.997933879389712342e+00
2.000000000000000000e+09,0.000000000000000000e+00,-4.071148872375488281e+00,4.513576000000000046e-03,-3.780900904735452706e+00,-3.848752433365759895e+00,-4.003297343745181536e+00
2.000000000000000000e+09,-1.000000000000000000e+00,-5.067242622375488281e+00,2.171151999999999978e-03,-3.780900904735452706e+00,-3.848752433365759895e+00,-4.999391093745181536e+00
2.000000000000000000e+09,-2.000000000000000000e+00,-6.066601753234863281e+00,9.364560000000001156e-04,-3.780900904735452706e+00,-3.848752433365759895e+00,-5.998750224604556536e+00
2.000000000000000000e+09,-3.000000000000000000e+00,-6.935597419738769531e+00,3.730159999999999943e-04,-3.780900904735452706e+00,-3.848752433365759895e+00,-6.867745891108462786e+00
2.000000000000000000e+09,-4.000000000000000000e+00,-7.937130928039550781e+00,5.793200000000000709e-05,-3.780900904735452706e+00,-3.848752433365759895e+00,-7.869279399409244036e+00
2.000000000000000000e+09,-5.000000000000000000e+00,-8.941433906555175781e+00,-8.194800000000002245e-05,-3.780900904735452706e+00,-3.848752433365759895e+00,-8.873582377924869036e+00
2.500000000000000000e+09,1.500000000000000000e+01,1.089717769622802734e+01,3.628208000000000544e-01,-3.551133949580365101e+00,-3.884399973986677690e+00,1.123044372063434082e+01
2.500000000000000000e+09,1.400000000000000000e+01,9.898459434509277344e+00,3.088367999999999669e-01,-3.551133949580365101e+00,-3.884399973986677690e+00,1.023172545891559082e+01
2.500000000000000000e+09,1.300000000000000000e+01,8.655856132507324219e+00,2.508232000000001349e-01,-3.551133949580365101e+00,-3.884399973986677690e+00,8.989122156913637696e+00
2.500000000000000000e+09,1.200000000000000000e+01,7.635806083679199219e+00,2.113504000000000771e-01,-3.551133949580365101e+00,-3.884399973986677690e+00,7.969072108085512696e+00
2.500000000000000000e+09,1.100000000000000000e+01,6.615899562835693359e+00,1.779459999999999931e-01,-3.551133949580365101e+00,-3.884399973986677690e+00,6.949165587242005948e+00
2.500000000000000000e+09,1.000000000000000000e+01,5.570158958435058594e+00,1.454908000000000035e-01,-3.551133949580365101e+00,-3.884399973986677690e+00,5.903424982841371182e+00
2.500000000000000000e+09,9.000000000000000000e+00,4.524077415466308594e+00,1.187196000000000640e-01,-3.551133949580365101e+00,-3.884399973986677690e+00,4.857343439872621182e+00
2.500000000000000000e+09,8.000000000000000000e+00,3.480090141296386719e+00,9.572540000000001603e-02,-3.551133949580365101e+00,-3.884399973986677690e+00,3.813356165702699307e+00
2.500000000000000000e+09,7.000000000000000000e+00,2.425467491149902344e+00,7.430379999999998930e-02,-3.551133949580365101e+00,-3.884399973986677690e+00,2.758733515556214932e+00
2.500000000000000000e+09,6.000000000000000000e+00,1.363761067390441895e+00,5.695860000000002588e-02,-3.551133949580365101e+00,-3.884399973986677690e+00,1.697027091796754483e+00
2.500000000000000000e+09,5.000000000000000000e+00,3.073531091213226318e-01,4.267072000000000226e-02,-3.551133949580365101e+00,-3.884399973986677690e+00,6.406191335276352206e-01
2.500000000000000000e+09,4.000000000000000000e+00,-7.592629194259643555e-01,2.992048000000000277e-02,-3.551133949580365101e+00,-3.884399973986677690e+00,-4.259968950196513227e-01
2.500000000000000000e+09,3.000000000000000000e+00,-1.821549296379089355e+00,2.014552000000000356e-02,-3.551133949580365101e+00,-3.884399973986677690e+00,-1.488283271972776323e+00
2.500000000000000000e+09,2.000000000000000000e+00,-2.877633094787597656e+00,1.256311999999999880e-02,-3.551133949580365101e+00,-3.884399973986677690e+00,-2.544367070381284623e+00
2.500000000000000000e+09,1.000000000000000000e+00,-3.918005466461181641e+00,7.257860000000000526e-03,-3.551133949580365101e+00,-3.884399973986677690e+00,-3.584739442054868608e+00
2.500000000000000000e+09,0.000000000000000000e+00,-4.960244178771972656e+00,3.801752000000000256e-03,-3.551133949580365101e+00,-3.884399973986677690e+00,-4.626978154365659179e+00
2.500000000000000000e+09,-1.000000000000000000e+00,-5.978920936584472656e+00,1.780564000000000105e-03,-3.551133949580365101e+00,-3.884399973986677690e+00,-5.645654912178159179e+00
2.500000000000000000e+09,-2.000000000000000000e+00,-6.998892307281494141e+00,7.217080000000000500e-04,-3.551133949580365101e+00,-3.884399973986677690e+00,-6.665626282875180664e+00
2.500000000000000000e+09,-3.000000000000000000e+00,-7.802628517150878906e+00,2.708400000000000564e-04,-3.551133949580365101e+00,-3.884399973986677690e+00,-7.469362492744565429e+00
2.500000000000000000e+09,-4.000000000000000000e+00,-8.808808326721191406e+00,1.518000000000000204e-05,-3.551133949580365101e+00,-3.884399973986677690e+00,-8.475542302314877929e+00
2.500000000000000000e+09,-5.000000000000000000e+00,-9.799981117248535156e+00,-1.035440000000000102e-04,-3.551133949580365101e+00,-3.884399973986677690e+00,-9.466715092842221679e+00
3.000000000000000000e+09,1.500000000000000000e+01,1.080938243865966797e+01,3.512240000000000917e-01,-3.942043780355967364e+00,-3.910511418491132485e+00,1.077785007679483265e+01
3.000000000000000000e+09,1.400000000000000000e+01,9.805579185485839844e+00,2.956135999999999764e-01,-3.942043780355967364e+00,-3.910511418491132485e+00,9.774046823621004521e+00
3.000000000000000000e+09,1.300000000000000000e+01,8.769545555114746094e+00,2.489544000000000756e-01,-3.942043780355967364e+00,-3.910511418491132485e+00,8.738013193249910771e+00
3.000000000000000000e+09,1.200000000000000000e+01,7.733447551727294922e+00,2.090352000000000876e-01,-3.942043780355967364e+00,-3.910511418491132485e+00,7.701915189862459599e+00
3.000000000000000000e+09,1.100000000000000000e+01,6.691653728485107422e+00,1.760851999999999973e-01,-3.942043780355967364e+00,-3.910511418491132485e+00,6.660121366620272099e+00
3.000000000000000000e+09,1.000000000000000000e+01,5.607875347137451172e+00,1.433180000000000565e-01,-3.942043780355967364e+00,-3.910511418491132485e+00,5.576342985272615849e+00
3.000000000000000000e+09,9.000000000000000000e+00,4.523467540740966797e+00,1.165044000000000496e-01,-3.942043780355967364e+00,-3.910511418491132485e+00,4.491935178876131474e+00
3.000000000000000000e+09,8.000000000000000000e+00,3.520087480545043945e+00,9.587780000000002689e-02,-3.942043780355967364e+00,-3.910511418491132485e+00,3.488555118680209066e+00
3.000000000000000000e+09,7.000000000000000000e+00,2.515658617019653320e+00,7.657919999999998617e-02,-3.942043780355967364e+00,-3.910511418491132485e+00,2.484126255154818441e+00
3.000000000000000000e+09,6.000000000000000000e+00,1.522113084793090820e+00,6.065400000000002040e-02,-3.942043780355967364e+00,-3.910511418491132485e+00,1.490580722928255941e+00
3.000000000000000000e+09,5.000000000000000000e+00,5.184815526008605957e-01,4.743456000000000755e-02,-3.942043780355967364e+00,-3.910511418491132485e+00,4.869491907360257166e-01
3.000000000000000000e+09,4.000000000000000000e+00,-4.798018634319305420e-01,3.537560000000000704e-02,-3.942043780355967364e+00,-3.910511418491132485e+00,-5.113342252967654211e-01
3.000000000000000000e+09,3.000000000000000000e+00,-1.488384962081909180e+00,2.539000000000000284e-02,-3.942043780355967364e+00,-3.910511418491132485e+00,-1.519917323946744059e+00
3.000000000000000000e+09,2.000000000000000000e+00,-2.489582777023315430e+00,1.764436000000000129e-02,-3.942043780355967364e+00,-3.910511418491132485e+00,-2.521115138888150309e+00
3.000000000000000000e+09,1.000000000000000000e+00,-3.502621412277221680e+00,1.136443999999999822e-02,-3.942043780355967364e+00,-3.910511418491132485e+00,-3.534153774142056559e+00
3.000000000000000000e+09,0.000000000000000000e+00,-4.517277240753173828e+00,6.801000000000000621e-03,-3.942043780355967364e+00,-3.910511418491132485e+00,-4.548809602618007375e+00
3.000000000000000000e+09,-1.000000000000000000e+00,-5.516590595245361328e+00,3.725000000000000880e-03,-3.942043780355967364e+00,-3.910511418491132485e+00,-5.548122957110194875e+00
3.000000000000000000e+09,-2.000000000000000000e+00,-6.520657062530517578e+00,1.826496000000000152e-03,-3.942043780355967364e+00,-3.910511418491132485e+00,-6.552189424395351125e+00
3.000000000000000000e+09,-3.000000000000000000e+00,-7.701267719268798828e+00,6.447480000000000008e-04,-3.942043780355967364e+00,-3.910511418491132485e+00,-7.732800081133632375e+00
3.000000000000000000e+09,-4.000000000000000000e+00,-8.694714546203613281e+00,1.708719999999999998e-04,-3.942043780355967364e+00,-3.910511418491132485e+00,-8.726246908068446828e+00
3.000000000000000000e+09,-5.000000000000000000e+00,-9.708928108215332031e+00,-1.664800000000000053e-05,-3.942043780355967364e+00,-3.910511418491132485e+00,-9.740460470080165578e+00
