# Gen Frequency (Hz), Gen Level (dBm), SA Level (dBm), Osc Voltage (V), S21 Gen-Sa (dB), S21 Gen-Det (dB), Det Level (dBm)
2.000000000000000000e+09,1.500000000000000000e+01,9.910516738891601562e+00,2.397820453124999585e+00,-3.780900904735452706e+00,-3.848752433365759895e+00,9.978368267521908308e+00
2.000000000000000000e+09,1.450980392156862564e+01,9.449501037597656250e+00,2.250203937500000251e+00,-3.780900904735452706e+00,-3.848752433365759895e+00,9.517352566227962996e+00
2.000000000000000000e+09,1.401960784313725483e+01,8.987903594970703125e+00,2.104599265625000104e+00,-3.780900904735452706e+00,-3.848752433365759895e+00,9.055755123601009871e+00
2.000000000000000000e+09,1.352941176470588047e+01,8.509925842285156250e+00,1.967671390624999850e+00,-3.780900904735452706e+00,-3.848752433365759895e+00,8.577777370915462996e+00
2.000000000000000000e+09,1.303921568627450966e+01,8.042549133300781250e+00,1.843381046875000262e+00,-3.780900904735452706e+00,-3.848752433365759895e+00,8.110400661931087996e+00
2.000000000000000000e+09,1.254901960784313530e+01,7.555511474609375000e+00,1.715435781249999847e+00,-3.780900904735452706e+00,-3.848752433365759895e+00,7.623363003239681746e+00
2.000000000000000000e+09,1.205882352941176450e+01,7.084263324737548828e+00,1.591975765625000205e+00,-3.780900904735452706e+00,-3.848752433365759895e+00,7.152114853367855574e+00
2.000000000000000000e+09,1.156862745098039014e+01,6.588696002960205078e+00,1.476298703124999889e+00,-3.780900904735452706e+00,-3.848752433365759895e+00,6.656547531590511824e+00
2.000000000000000000e+09,1.107843137254901933e+01,6.103905200958251953e+00,1.372992796874999977e+00,-3.780900904735452706e+00,-3.848752433365759895e+00,6.171756729588558699e+00
2.000000000000000000e+09,1.058823529411764497e+01,5.620457172393798828e+00,1.275280078124999994e+00,-3.780900904735452706e+00,-3.848752433365759895e+00,5.688308701024105574e+00
2.000000000000000000e+09,1.009803921568627416e+01,5.135528564453125000e+00,1.191386999999999974e+00,-3.780900904735452706e+00,-3.848752433365759895e+00,5.203380093083431746e+00
2.000000000000000000e+09,9.607843137254899801e+00,4.650059223175048828e+00,1.104795250000000006e+00,-3.780900904735452706e+00,-3.848752433365759895e+00,4.717910751805355574e+00
2.000000000000000000e+09,9.117647058823528994e+00,4.167457580566406250e+00,1.020166375000000070e+00,-3.780900904735452706e+00,-3.848752433365759895e+00,4.235309109196712996e+00
2.000000000000000000e+09,8.627450980392154634e+00,3.666843652725219727e+00,9.588364609375000791e-01,-3.780900904735452706e+00,-3.848752433365759895e+00,3.734695181355526916e+00
2.000000000000000000e+09,8.137254901960783826e+00,3.175716638565063477e+00,8.856949062500000247e-01,-3.780900904735452706e+00,-3.848752433365759895e+00,3.243568167195370666e+00
2.000000000000000000e+09,7.647058823529409466e+00,2.690559625625610352e+00,8.153446953124999785e-01,-3.780900904735452706e+00,-3.848752433365759895e+00,2.758411154255917541e+00
2.000000000000000000e+09,7.156862745098038658e+00,2.193886041641235352e+00,7.481496562500000724e-01,-3.780900904735452706e+00,-3.848752433365759895e+00,2.261737570271542541e+00
2.000000000000000000e+09,6.666666666666664298e+00,1.714077234268188477e+00,6.856014687500000537e-01,-3.780900904735452706e+00,-3.848752433365759895e+00,1.781928762898495666e+00
2.000000000000000000e+09,6.176470588235293491e+00,1.224170804023742676e+00,6.282408984375000838e-01,-3.780900904735452706e+00,-3.848752433365759895e+00,1.292022332654049865e+00
2.000000000000000000e+09,5.686274509803920907e+00,7.335588335990905762e-01,5.774787343749999691e-01,-3.780900904735452706e+00,-3.848752433365759895e+00,8.014103622293977658e-01
2.000000000000000000e+09,5.196078431372548323e+00,2.451020926237106323e-01,5.256233749999998928e-01,-3.780900904735452706e+00,-3.848752433365759895e+00,3.129536212540178219e-01
2.000000000000000000e+09,4.705882352941175739e+00,-2.448690682649612427e-01,4.745775375000000351e-01,-3.780900904735452706e+00,-3.848752433365759895e+00,-1.770175396346540531e-01
2.000000000000000000e+09,4.215686274509803155e+00,-7.369115352630615234e-01,4.286063500000000248e-01,-3.780900904735452706e+00,-3.848752433365759895e+00,-6.690600066327543338e-01
2.000000000000000000e+09,3.725490196078430571e+00,-1.232463598251342773e+00,3.858151375000000161e-01,-3.780900904735452706e+00,-3.848752433365759895e+00,-1.164612069621035584e+00
2.000000000000000000e+09,3.235294117647057988e+00,-1.719886541366577148e+00,3.472639093750000128e-01,-3.780900904735452706e+00,-3.848752433365759895e+00,-1.652035012736269959e+00
2.000000000000000000e+09,2.745098039215685404e+00,-2.223361730575561523e+00,3.095095406250000236e-01,-3.780900904735452706e+00,-3.848752433365759895e+00,-2.155510201945254334e+00
2.000000000000000000e+09,2.254901960784312820e+00,-2.715114355087280273e+00,2.754506374999999840e-01,-3.780900904735452706e+00,-3.848752433365759895e+00,-2.647262826456973084e+00
2.000000000000000000e+09,1.764705882352940236e+00,-3.200420141220092773e+00,2.448403593750000384e-01,-3.780900904735452706e+00,-3.848752433365759895e+00,-3.132568612589785584e+00
2.000000000000000000e+09,1.274509803921567652e+00,-3.693612813949584961e+00,2.162094906250000281e-01,-3.780900904735452706e+00,-3.848752433365759895e+00,-3.625761285319277771e+00
2.000000000000000000e+09,7.843137254901950683e-01,-4.199765682220458984e+00,1.921380499999999769e-01,-3.780900904735452706e+00,-3.848752433365759895e+00,-4.131914153590152239e+00
2.000000000000000000e+09,2.941176470588224845e-01,-4.675508022308349609e+00,1.674849375000000140e-01,-3.780900904735452706e+00,-3.848752433365759895e+00,-4.607656493678042864e+00
2.000000000000000000e+09,-1.960784313725500994e-01,-5.177709579467773438e+00,1.447758468750000027e-01,-3.780900904735452706e+00,-3.848752433365759895e+00,-5.109858050837466692e+00
2.000000000000000000e+09,-6.862745098039226832e-01,-5.654588699340820312e+00,1.242510781249999974e-01,-3.780900904735452706e+00,-3.848752433365759895e+00,-5.586737170710513567e+00
2.000000000000000000e+09,-1.176470588235295267e+00,-6.164155960083007812e+00,1.065109078124999997e-01,-3.780900904735452706e+00,-3.848752433365759895e+00,-6.096304431452701067e+00
2.000000000000000000e+09,-1.666666666666667851e+00,-6.648549556732177734e+00,9.182397890625000614e-02,-3.780900904735452706e+00,-3.848752433365759895e+00,-6.580698028101870989e+00
2.000000000000000000e+09,-2.156862745098039547e+00,-7.130369186401367188e+00,7.684953359375000514e-02,-3.780900904735452706e+00,-3.848752433365759895e+00,-7.062517657771060442e+00
2.000000000000000000e+09,-2.647058823529412130e+00,-7.484616756439208984e+00,6.719116875000000211e-02,-3.780900904735452706e+00,-3.848752433365759895e+00,-7.416765227808902239e+00
2.000000000000000000e+09,-3.137254901960784714e+00,-7.980684280395507812e+00,5.594872031250000544e-02,-3.780900904735452706e+00,-3.848752433365759895e+00,-7.912832751765201067e+00
2.000000000000000000e+09,-3.627450980392157298e+00,-8.471960067749023438e+00,4.679210531250000554e-02,-3.780900904735452706e+00,-3.848752433365759895e+00,-8.404108539118716692e+00
2.000000000000000000e+09,-4.117647058823529882e+00,-8.960718154907226562e+00,3.807184499999999999e-02,-3.780900904735452706e+00,-3.848752433365759895e+00,-8.892866626276919817e+00
2.000000000000000000e+09,-4.607843137254902466e+00,-9.444692611694335938e+00,3.080996000000000082e-02,-3.780900904735452706e+00,-3.848752433365759895e+00,-9.376841083064029192e+00
2.000000000000000000e+09,-5.098039215686275050e+00,-9.938734054565429688e+00,2.481764125000000126e-02,-3.780900904735452706e+00,-3.848752433365759895e+00,-9.870882525935122942e+00
2.000000000000000000e+09,-5.588235294117647634e+00,-1.043310737609863281e+01,2.006419093750000035e-02,-3.780900904735452706e+00,-3.848752433365759895e+00,-1.036525584746832607e+01
2.000000000000000000e+09,-6.078431372549019329e+00,-1.092067527770996094e+01,1.619542046875000266e-02,-3.780900904735452706e+00,-3.848752433365759895e+00,-1.085282374907965419e+01
2.000000000000000000e+09,-6.568627450980391913e+00,-1.140859794616699219e+01,1.294494921875000322e-02,-3.780900904735452706e+00,-3.848752433365759895e+00,-1.134074641753668544e+01
2.000000000000000000e+09,-7.058823529411764497e+00,-1.188551139831542969e+01,1.052715953125000180e-02,-3.780900904735452706e+00,-3.848752433365759895e+00,-1.181765986968512294e+01
2.000000000000000000e+09,-7.549019607843137081e+00,-1.239711570739746094e+01,8.543944374999999300e-03,-3.780900904735452706e+00,-3.848752433365759895e+00,-1.232926417876715419e+01
2.000000000000000000e+09,-8.039215686274509665e+00,-1.290843009948730469e+01,6.803168750000000535e-03,-3.780900904735452706e+00,-3.848752433365759895e+00,-1.284057857085699794e+01
2.000000000000000000e+09,-8.529411764705882248e+00,-1.339468193054199219e+01,5.562347187500000373e-03,-3.780900904735452706e+00,-3.848752433365759895e+00,-1.332683040191168544e+01
2.000000000000000000e+09,-9.019607843137254832e+00,-1.388413429260253906e+01,4.559110031250000750e-03,-3.780900904735452706e+00,-3.848752433365759895e+00,-1.381628276397223232e+01
2.000000000000000000e+09,-9.509803921568627416e+00,-1.438068962097167969e+01,3.729884718750000206e-03,-3.780900904735452706e+00,-3.848752433365759895e+00,-1.431283809234137294e+01
2.000000000000000000e+09,-1.000000000000000000e+01,-1.486224555969238281e+01,3.028922093750000249e-03,-3.780900904735452706e+00,-3.848752433365759895e+00,-1.479439403106207607e+01
2.450000000000000000e+09,1.500000000000000000e+01,9.940191268920898438e+00,2.539807781249999952e+00,-3.958129318737290347e+00,-4.197854049952563393e+00,1.017991600013617060e+01
2.450000000000000000e+09,1.450980392156862564e+01,9.451353073120117188e+00,2.397091734375000005e+00,-3.958129318737290347e+00,-4.197854049952563393e+00,9.691077804335389345e+00
2.450000000000000000e+09,1.401960784313725483e+01,8.972721099853515625e+00,2.241762890625000004e+00,-3.958129318737290347e+00,-4.197854049952563393e+00,9.212445831068787783e+00
2.450000000000000000e+09,1.352941176470588047e+01,8.434770584106445312e+00,2.073636359375000016e+00,-3.958129318737290347e+00,-4.197854049952563393e+00,8.674495315321717470e+00
2.450000000000000000e+09,1.303921568627450966e+01,7.980329990386962891e+00,1.936831078125000216e+00,-3.958129318737290347e+00,-4.197854049952563393e+00,8.220054721602235048e+00
2.450000000000000000e+09,1.254901960784313530e+01,7.494516849517822266e+00,1.814325640624999902e+00,-3.958129318737290347e+00,-4.197854049952563393e+00,7.734241580733095311e+00
2.450000000000000000e+09,1.205882352941176450e+01,7.007566928863525391e+00,1.689128515624999993e+00,-3.958129318737290347e+00,-4.197854049952563393e+00,7.247291660078798436e+00
2.450000000000000000e+09,1.156862745098039014e+01,6.531290531158447266e+00,1.569662265625000108e+00,-3.958129318737290347e+00,-4.197854049952563393e+00,6.771015262373720311e+00
2.450000000000000000e+09,1.107843137254901933e+01,6.047575473785400391e+00,1.460794921875000041e+00,-3.958129318737290347e+00,-4.197854049952563393e+00,6.287300205000673436e+00
2.450000000000000000e+09,1.058823529411764497e+01,5.566412448883056641e+00,1.357015468749999787e+00,-3.958129318737290347e+00,-4.197854049952563393e+00,5.806137180098329686e+00
2.450000000000000000e+09,1.009803921568627416e+01,5.085226535797119141e+00,1.260375671874999881e+00,-3.958129318737290347e+00,-4.197854049952563393e+00,5.324951267012392186e+00
2.450000000000000000e+09,9.607843137254899801e+00,4.594160556793212891e+00,1.179026968749999904e+00,-3.958129318737290347e+00,-4.197854049952563393e+00,4.833885288008485936e+00
2.450000000000000000e+09,9.117647058823528994e+00,4.102812290191650391e+00,1.092375781249999900e+00,-3.958129318737290347e+00,-4.197854049952563393e+00,4.342537021406923436e+00
2.450000000000000000e+09,8.627450980392154634e+00,3.625360727310180664e+00,1.007801296875000086e+00,-3.958129318737290347e+00,-4.197854049952563393e+00,3.865085458525453710e+00
2.450000000000000000e+09,8.137254901960783826e+00,3.129308938980102539e+00,9.482363906250000918e-01,-3.958129318737290347e+00,-4.197854049952563393e+00,3.369033670195375585e+00
2.450000000000000000e+09,7.647058823529409466e+00,2.642858743667602539e+00,8.750076249999999556e-01,-3.958129318737290347e+00,-4.197854049952563393e+00,2.882583474882875585e+00
2.450000000000000000e+09,7.156862745098038658e+00,2.152055978775024414e+00,8.042816562500000321e-01,-3.958129318737290347e+00,-4.197854049952563393e+00,2.391780709990297460e+00
2.450000000000000000e+09,6.666666666666664298e+00,1.667513132095336914e+00,7.377596640625000424e-01,-3.958129318737290347e+00,-4.197854049952563393e+00,1.907237863310609960e+00
2.450000000000000000e+09,6.176470588235293491e+00,1.174886941909790039e+00,6.773807031249999833e-01,-3.958129318737290347e+00,-4.197854049952563393e+00,1.414611673125063085e+00
2.450000000000000000e+09,5.686274509803920907e+00,7.028982639312744141e-01,6.211363515625000220e-01,-3.958129318737290347e+00,-4.197854049952563393e+00,9.426229951465474599e-01
2.450000000000000000e+09,5.196078431372548323e+00,2.006857693195343018e-01,5.717336875000000873e-01,-3.958129318737290347e+00,-4.197854049952563393e+00,4.404105005348073476e-01
2.450000000000000000e+09,4.705882352941175739e+00,-2.826249301433563232e-01,5.197717968749999695e-01,-3.958129318737290347e+00,-4.197854049952563393e+00,-4.290019892808327739e-02
2.450000000000000000e+09,4.215686274509803155e+00,-7.701661586761474609e-01,4.700811593749999462e-01,-3.958129318737290347e+00,-4.197854049952563393e+00,-5.304414274608744151e-01
2.450000000000000000e+09,3.725490196078430571e+00,-1.264043569564819336e+00,4.242808781249999828e-01,-3.958129318737290347e+00,-4.197854049952563393e+00,-1.024318838349546290e+00
2.450000000000000000e+09,3.235294117647057988e+00,-1.758489370346069336e+00,3.822297031250000421e-01,-3.958129318737290347e+00,-4.197854049952563393e+00,-1.518764639130796290e+00
2.450000000000000000e+09,2.745098039215685404e+00,-2.241109609603881836e+00,3.440368718749999832e-01,-3.958129318737290347e+00,-4.197854049952563393e+00,-2.001384878388608790e+00
2.450000000000000000e+09,2.254901960784312820e+00,-2.734943151473999023e+00,3.070700093750000081e-01,-3.958129318737290347e+00,-4.197854049952563393e+00,-2.495218420258725978e+00
2.450000000000000000e+09,1.764705882352940236e+00,-3.229541540145874023e+00,2.728668718750000277e-01,-3.958129318737290347e+00,-4.197854049952563393e+00,-2.989816808930600978e+00
2.450000000000000000e+09,1.274509803921567652e+00,-3.707957983016967773e+00,2.438457625000000351e-01,-3.958129318737290347e+00,-4.197854049952563393e+00,-3.468233251801694728e+00
2.450000000000000000e+09,7.843137254901950683e-01,-4.215850353240966797e+00,2.143728906249999788e-01,-3.958129318737290347e+00,-4.197854049952563393e+00,-3.976125622025693751e+00
2.450000000000000000e+09,2.941176470588224845e-01,-4.700450420379638672e+00,1.906960343749999898e-01,-3.958129318737290347e+00,-4.197854049952563393e+00,-4.460725689164365626e+00
2.450000000000000000e+09,-1.960784313725500994e-01,-5.190162181854248047e+00,1.664604781250000054e-01,-3.958129318737290347e+00,-4.197854049952563393e+00,-4.950437450638975001e+00
2.450000000000000000e+09,-6.862745098039226832e-01,-5.685599803924560547e+00,1.437295390624999947e-01,-3.958129318737290347e+00,-4.197854049952563393e+00,-5.445875072709287501e+00
2.450000000000000000e+09,-1.176470588235295267e+00,-6.181106090545654297e+00,1.237143953125000029e-01,-3.958129318737290347e+00,-4.197854049952563393e+00,-5.941381359330381251e+00
2.450000000000000000e+09,-1.666666666666667851e+00,-6.668731212615966797e+00,1.060765781250000150e-01,-3.958129318737290347e+00,-4.197854049952563393e+00,-6.429006481400693751e+00
2.450000000000000000e+09,-2.156862745098039547e+00,-7.157546520233154297e+00,9.137244062499999542e-02,-3.958129318737290347e+00,-4.197854049952563393e+00,-6.917821789017881251e+00
2.450000000000000000e+09,-2.647058823529412130e+00,-7.574424266815185547e+00,7.855753359374999245e-02,-3.958129318737290347e+00,-4.197854049952563393e+00,-7.334699535599912501e+00
2.450000000000000000e+09,-3.137254901960784714e+00,-8.050327301025390625e+00,6.531311171875001098e-02,-3.958129318737290347e+00,-4.197854049952563393e+00,-7.810602569810117579e+00
2.450000000000000000e+09,-3.627450980392157298e+00,-8.545261383056640625e+00,5.447807890624999094e-02,-3.958129318737290347e+00,-4.197854049952563393e+00,-8.305536651841368467e+00
2.450000000000000000e+09,-4.117647058823529882e+00,-9.035171508789062500e+00,4.541578500000000712e-02,-3.958129318737290347e+00,-4.197854049952563393e+00,-8.795446777573790342e+00
2.450000000000000000e+09,-4.607843137254902466e+00,-9.527858734130859375e+00,3.703152812499999752e-02,-3.958129318737290347e+00,-4.197854049952563393e+00,-9.288134002915587217e+00
2.450000000000000000e+09,-5.098039215686275050e+00,-1.001462554931640625e+01,2.977570375000000366e-02,-3.958129318737290347e+00,-4.197854049952563393e+00,-9.774900818101134092e+00
2.450000000000000000e+09,-5.588235294117647634e+00,-1.050226211547851562e+01,2.425287312500000111e-02,-3.958129318737290347e+00,-4.197854049952563393e+00,-1.026253738426324347e+01
2.450000000000000000e+09,-6.078431372549019329e+00,-1.099263763427734375e+01,1.955217031250000223e-02,-3.958129318737290347e+00,-4.197854049952563393e+00,-1.075291290306207159e+01
2.450000000000000000e+09,-6.568627450980391913e+00,-1.148327255249023438e+01,1.565893859375000127e-02,-3.958129318737290347e+00,-4.197854049952563393e+00,-1.124354782127496222e+01
2.450000000000000000e+09,-7.058823529411764497e+00,-1.196624755859375000e+01,1.257143703125000213e-02,-3.958129318737290347e+00,-4.197854049952563393e+00,-1.172652282737847784e+01
2.450000000000000000e+09,-7.549019607843137081e+00,-1.246591949462890625e+01,1.010257171875000165e-02,-3.958129318737290347e+00,-4.197854049952563393e+00,-1.222619476341363409e+01
2.450000000000000000e+09,-8.039215686274509665e+00,-1.295950317382812500e+01,8.231149374999999907e-03,-3.958129318737290347e+00,-4.197854049952563393e+00,-1.271977844261285284e+01
2.450000000000000000e+09,-8.529411764705882248e+00,-1.345437622070312500e+01,6.620813515624999861e-03,-3.958129318737290347e+00,-4.197854049952563393e+00,-1.321465148948785284e+01
2.450000000000000000e+09,-9.019607843137254832e+00,-1.394731903076171875e+01,5.439560546875000548e-03,-3.958129318737290347e+00,-4.197854049952563393e+00,-1.370759429954644659e+01
2.450000000000000000e+09,-9.509803921568627416e+00,-1.443215179443359375e+01,4.429961468749999375e-03,-3.958129318737290347e+00,-4.197854049952563393e+00,-1.419242706321832159e+01
2.450000000000000000e+09,-1.000000000000000000e+01,-1.491598510742187500e+01,3.613830656249999822e-03,-3.958129318737290347e+00,-4.197854049952563393e+00,-1.467626037620660284e+01
2.900000000000000000e+09,1.500000000000000000e+01,1.026310539245605469e+01,2.832731890624999860e+00,-3.909681949324976369e+00,-3.867788358693269757e+00,1.022121180182434763e+01
2.900000000000000000e+09,1.450980392156862564e+01,9.780996322631835938e+00,2.650917593750000467e+00,-3.909681949324976369e+00,-3.867788358693269757e+00,9.739102732000128881e+00
2.900000000000000000e+09,1.401960784313725483e+01,9.287904739379882812e+00,2.497155093750000443e+00,-3.909681949324976369e+00,-3.867788358693269757e+00,9.246011148748175756e+00
2.900000000000000000e+09,1.352941176470588047e+01,8.783971786499023438e+00,2.340806343750000185e+00,-3.909681949324976369e+00,-3.867788358693269757e+00,8.742078195867316381e+00
2.900000000000000000e+09,1.303921568627450966e+01,8.295633316040039062e+00,2.185553968749999854e+00,-3.909681949324976369e+00,-3.867788358693269757e+00,8.253739725408332006e+00
2.900000000000000000e+09,1.254901960784313530e+01,7.781278610229492188e+00,2.031616968749999863e+00,-3.909681949324976369e+00,-3.867788358693269757e+00,7.739385019597785131e+00
2.900000000000000000e+09,1.205882352941176450e+01,7.299489974975585938e+00,1.895898781249999887e+00,-3.909681949324976369e+00,-3.867788358693269757e+00,7.257596384343878881e+00
