! RSA506N VNA S21 Measurement
! Converted from gen_det.txt
# Hz S DB R 50
100000 6.509680e-01 -1.502657e-01
6599900 5.977777e-01 -2.911167e-01
13099800 5.168846e-01 -4.156478e-01
19599700 4.118067e-01 -5.138845e-01
26099600 2.887894e-01 -5.866809e-01
32599500 1.489664e-01 -6.325129e-01
39099400 1.013396e-02 -6.474353e-01
45599300 -1.287664e-01 -6.332681e-01
52099200 -2.611272e-01 -5.921185e-01
58599100 -3.836262e-01 -5.244795e-01
65099000 -4.925955e-01 -4.302248e-01
71598900 -5.778380e-01 -3.160746e-01
78098800 -6.375868e-01 -1.823666e-01
84598700 -6.647852e-01 -4.080701e-02
91098600 -6.582642e-01 1.086957e-01
97598500 -6.166427e-01 2.499797e-01
104098400 -5.445345e-01 3.766911e-01
110598300 -4.430887e-01 4.857464e-01
117098200 -3.237680e-01 5.663396e-01
123598100 -1.898743e-01 6.190224e-01
130098000 -5.316918e-02 6.415321e-01
136597900 8.596817e-02 6.361027e-01
143097800 2.204842e-01 6.031540e-01
149597700 3.433357e-01 5.453994e-01
156097600 4.548156e-01 4.624127e-01
162597500 5.473918e-01 3.569213e-01
169097400 6.161351e-01 2.307676e-01
175597300 6.547372e-01 9.010331e-02
182097200 6.595431e-01 -6.095629e-02
188597100 6.291333e-01 -2.026333e-01
195097000 5.645805e-01 -3.370150e-01
201596900 4.693999e-01 -4.536952e-01
208096800 3.576414e-01 -5.406378e-01
214596700 2.275706e-01 -6.016982e-01
221096600 8.907120e-02 -6.328519e-01
227596500 -4.512531e-02 -6.357769e-01
234096400 -1.771124e-01 -6.114369e-01
240596300 -3.027112e-01 -5.611944e-01
247096200 -4.165397e-01 -4.869959e-01
253596100 -5.126289e-01 -3.915290e-01
260096000 -5.897122e-01 -2.723279e-01
266595900 -6.392534e-01 -1.359563e-01
273095800 -6.551973e-01 1.206759e-02
279595700 -6.369017e-01 1.578020e-01
286095600 -5.831932e-01 2.978933e-01
292595500 -4.997462e-01 4.191123e-01
299095400 -3.921414e-01 5.169872e-01
305595300 -2.685781e-01 5.863905e-01
312095200 -1.322857e-01 6.281145e-01
318595100 -1.022698e-03 6.392153e-01
325095000 1.327999e-01 6.240598e-01
331594900 2.635003e-01 5.817954e-01
338094800 3.792406e-01 5.173379e-01
344594700 4.837965e-01 4.256027e-01
351094600 5.677707e-01 3.122472e-01
357594500 6.259826e-01 1.797941e-01
364094400 6.518882e-01 3.857813e-02
370594300 6.439552e-01 -1.078883e-01
377094200 6.032246e-01 -2.486709e-01
383594100 5.293946e-01 -3.791054e-01
390094000 4.289332e-01 -4.854762e-01
396593900 3.069854e-01 -5.674415e-01
403093800 1.784921e-01 -6.162898e-01
409593700 4.375095e-02 -6.375824e-01
416093600 -8.949359e-02 -6.313249e-01
422593500 -2.198244e-01 -5.994923e-01
429093400 -3.415831e-01 -5.415393e-01
435593300 -4.489698e-01 -4.607476e-01
442093200 -5.404232e-01 -3.539944e-01
448593100 -6.064582e-01 -2.269379e-01
455093000 -6.423606e-01 -8.604591e-02
461592900 -6.453171e-01 5.698043e-02
468092800 -6.153187e-01 2.030241e-01
474592700 -5.539745e-01 3.370454e-01
481092600 -4.639919e-01 4.527027e-01
487592500 -3.481258e-01 5.453086e-01
494092400 -2.192076e-01 6.058594e-01
500592300 -8.674458e-02 6.356558e-01
507092200 4.954446e-02 6.367267e-01
513592100 1.814045e-01 6.117968e-01
520092000 3.057340e-01 5.619406e-01
526591900 4.195833e-01 4.848318e-01
533091800 5.164379e-01 3.829032e-01
539591700 5.873636e-01 2.629881e-01
546091600 6.305350e-01 1.303679e-01
552591500 6.439323e-01 -1.392412e-02
559091400 6.267787e-01 -1.552959e-01
565591300 5.797744e-01 -2.913567e-01
572091200 5.013230e-01 -4.167892e-01
578591100 3.929229e-01 -5.220887e-01
585091000 2.665414e-01 -5.940723e-01
591590900 1.300011e-01 -6.334147e-01
598090800 -6.909851e-03 -6.421613e-01
604590700 -1.411692e-01 -6.238922e-01
611090600 -2.707527e-01 -5.794279e-01
617590500 -3.875966e-01 -5.104339e-01
624090400 -4.891781e-01 -4.155122e-01
630590300 -5.673081e-01 -3.020892e-01
637090200 -6.183241e-01 -1.717564e-01
643590100 -6.401644e-01 -3.304695e-02
650090000 -6.345057e-01 1.027357e-01
656589900 -6.015942e-01 2.390469e-01
663089800 -5.376369e-01 3.712160e-01
669589700 -4.409924e-01 4.878002e-01
676089600 -3.178028e-01 5.755485e-01
682589500 -1.786068e-01 6.289289e-01
689089400 -3.704587e-02 6.461707e-01
695589300 1.033365e-01 6.334467e-01
702089200 2.335315e-01 5.951828e-01
708589100 3.559446e-01 5.315434e-01
715089000 4.620331e-01 4.429108e-01
721588900 5.451295e-01 3.335271e-01
728088800 6.025408e-01 2.073559e-01
734588700 6.307878e-01 7.462504e-02
741088600 6.327566e-01 -5.891132e-02
747588500 6.109767e-01 -1.931206e-01
754088400 5.616080e-01 -3.262092e-01
760588300 4.798769e-01 -4.513835e-01
767088200 3.653389e-01 -5.540700e-01
773588100 2.300968e-01 -6.208978e-01
780088000 8.028731e-02 -6.512491e-01
786587900 -6.284307e-02 -6.453572e-01
793087800 -1.955142e-01 -6.121607e-01
799587700 -3.197622e-01 -5.543643e-01
806087600 -4.330093e-01 -4.706784e-01
812587500 -5.232891e-01 -3.645570e-01
819087400 -5.869922e-01 -2.418607e-01
825587300 -6.217554e-01 -1.118742e-01
832087200 -6.310585e-01 1.887765e-02
838587100 -6.186328e-01 1.492777e-01
845087000 -5.840142e-01 2.771391e-01
851586900 -5.177293e-01 4.071747e-01
858086800 -4.201045e-01 5.209286e-01
864586700 -2.888836e-01 6.077642e-01
871086600 -1.369393e-01 6.539152e-01
877586500 1.300481e-02 6.580580e-01
884086400 1.545190e-01 6.301272e-01
890586300 2.853636e-01 5.763434e-01
897086200 4.014277e-01 4.989012e-01
903586100 4.983720e-01 3.982133e-01
910086000 5.691235e-01 2.787337e-01
916585900 6.107103e-01 1.509432e-01
923085800 6.261402e-01 2.341301e-02
929585700 6.197727e-01 -1.044977e-01
936085600 5.930693e-01 -2.318376e-01
942585500 5.412092e-01 -3.595418e-01
949085400 4.566443e-01 -4.818372e-01
955585300 3.393088e-01 -5.812453e-01
962085200 1.895065e-01 -6.472158e-01
968585100 3.232941e-02 -6.668782e-01
975085000 -1.188074e-01 -6.468330e-01
981584900 -2.499779e-01 -5.980186e-01
988084800 -3.703317e-01 -5.242641e-01
994584700 -4.714103e-01 -4.291152e-01
1001084600 -5.487340e-01 -3.131742e-01
1007584500 -5.969463e-01 -1.876164e-01
1014084400 -6.189437e-01 -5.905186e-02
1020584300 -6.179654e-01 6.811739e-02
1027084200 -5.969317e-01 1.946238e-01
1033584100 -5.572968e-01 3.160493e-01
1040084000 -4.868368e-01 4.411649e-01
1046583900 -3.817514e-01 5.532065e-01
1053083800 -2.452460e-01 6.340679e-01
1059583700 -8.729674e-02 6.733489e-01
1066083600 6.697430e-02 6.667578e-01
1072583500 2.117487e-01 6.242271e-01
1079083400 3.387465e-01 5.537943e-01
1085583300 4.474822e-01 4.596428e-01
1092083200 5.285052e-01 3.513602e-01
1098583100 5.871963e-01 2.280881e-01
1105083000 6.166335e-01 9.905275e-02
1111582900 6.220434e-01 -2.797601e-02
1118082800 6.064472e-01 -1.530472e-01
1124582700 5.713230e-01 -2.761501e-01
1131082600 5.124296e-01 -3.975471e-01
1137582500 4.212314e-01 -5.126028e-01
1144082400 2.961820e-01 -6.066002e-01
1150582300 1.430465e-01 -6.647113e-01
1157082200 -1.768835e-02 -6.751627e-01
1163582100 -1.678870e-01 -6.445539e-01
1170082000 -3.049566e-01 -5.802172e-01
1176581900 -4.175326e-01 -4.934965e-01
1183081800 -5.076051e-01 -3.873668e-01
1189581700 -5.719315e-01 -2.687893e-01
1196081600 -6.100062e-01 -1.400009e-01
1202581500 -6.213747e-01 -1.214811e-02
1209081400 -6.103630e-01 1.136917e-01
1215581300 -5.783089e-01 2.382538e-01
1222081200 -5.260323e-01 3.578296e-01
1228581100 -4.481108e-01 4.721995e-01
1235081000 -3.394047e-01 5.738857e-01
1241580900 -1.974804e-01 6.483433e-01
1248080800 -4.032777e-02 6.794255e-01
1254580700 1.246432e-01 6.649445e-01
1261080600 2.663205e-01 6.103947e-01
1267580500 3.883859e-01 5.271324e-01
1274080400 4.875712e-01 4.223915e-01
1280580300 5.569514e-01 3.100539e-01
1287080200 6.052716e-01 1.821957e-01
1293580100 6.263765e-01 5.032075e-02
1300080000 6.222074e-01 -7.902308e-02
1306579900 5.950504e-01 -2.054564e-01
1313079800 5.477131e-01 -3.250604e-01
1319579700 4.774661e-01 -4.384151e-01
1326079600 3.753224e-01 -5.448863e-01
1332579500 2.467592e-01 -6.274183e-01
1339079400 9.598263e-02 -6.736714e-01
1345579300 -6.919443e-02 -6.765737e-01
1352079200 -2.228723e-01 -6.346288e-01
1358579100 -3.546610e-01 -5.590476e-01
1365079000 -4.620484e-01 -4.600722e-01
1371578900 -5.435256e-01 -3.450592e-01
1378078800 -5.986464e-01 -2.223111e-01
1384578700 -6.277610e-01 -9.206484e-02
1391078600 -6.308729e-01 3.851941e-02
1397578500 -6.083427e-01 1.706638e-01
1404078400 -5.630737e-01 2.901151e-01
1410578300 -4.961281e-01 4.037889e-01
1417078200 -4.038769e-01 5.091564e-01
1423578100 -2.881371e-01 5.957286e-01
1430078000 -1.404338e-01 6.568296e-01
1436577900 1.353723e-02 6.756266e-01
1443077800 1.734759e-01 6.506542e-01
1449577700 3.174237e-01 5.845469e-01
1456077600 4.316325e-01 4.927833e-01
1462577500 5.196473e-01 3.853381e-01
1469077400 5.853075e-01 2.626331e-01
1475577300 6.248736e-01 1.327207e-01
1482077200 6.364384e-01 -2.542527e-03
1488577100 6.209763e-01 -1.358363e-01
1495077000 5.793691e-01 -2.604514e-01
1501576900 5.138016e-01 -3.795777e-01
1508076800 4.292095e-01 -4.826246e-01
1514576700 3.211524e-01 -5.719668e-01
1521076600 1.881117e-01 -6.386088e-01
1527576500 3.508128e-02 -6.715226e-01
1534076400 -1.234486e-01 -6.614636e-01
1540576300 -2.720050e-01 -6.096587e-01
1547076200 -3.971056e-01 -5.256768e-01
1553576100 -4.961633e-01 -4.206818e-01
1560076000 -5.705339e-01 -3.026453e-01
1566575900 -6.199379e-01 -1.730475e-01
1573075800 -6.422937e-01 -3.651892e-02
1579575700 -6.352315e-01 9.804316e-02
1586075600 -5.999321e-01 2.297805e-01
1592575500 -5.387515e-01 3.495276e-01
1599075400 -4.545428e-01 4.559748e-01
1605575300 -3.554419e-01 5.445765e-01
1612075200 -2.300020e-01 6.163571e-01
1618575100 -8.798546e-02 6.584932e-01
1625075000 6.911883e-02 6.634781e-01
1631574900 2.209349e-01 6.275104e-01
1638074800 3.553583e-01 5.554884e-01
1644574700 4.660430e-01 4.566423e-01
1651074600 5.508978e-01 3.404705e-01
1657574500 6.089086e-01 2.167781e-01
1664074400 6.414078e-01 8.377761e-02
1670574300 6.447743e-01 -5.522310e-02
1677074200 6.161914e-01 -1.941822e-01
1683574100 5.597736e-01 -3.190199e-01
1690074000 4.781610e-01 -4.309229e-01
1696573900 3.792313e-01 -5.228351e-01
1703073800 2.599359e-01 -5.964740e-01
1709573700 1.238382e-01 -6.444087e-01
1716073600 -2.413345e-02 -6.597164e-01
1722573500 -1.755452e-01 -6.380195e-01
1729073400 -3.179015e-01 -5.771883e-01
1735573300 -4.346468e-01 -4.889665e-01
1742073200 -5.271031e-01 -3.797058e-01
1748573100 -5.942810e-01 -2.573711e-01
1755073000 -6.355896e-01 -1.232490e-01
1761572900 -6.479754e-01 1.905068e-02
1768072800 -6.282534e-01 1.591521e-01
1774572700 -5.776942e-01 2.910343e-01
1781072600 -5.016916e-01 4.056018e-01
1787572500 -4.032637e-01 5.040380e-01
1794072400 -2.900716e-01 5.788213e-01
1800572300 -1.623784e-01 6.308112e-01
1807072200 -1.958043e-02 6.542941e-01
1813572100 1.269324e-01 6.444777e-01
1820072000 2.689320e-01 5.985445e-01
1826571900 3.972888e-01 5.195242e-01
1833071800 4.971478e-01 4.184916e-01
1839571700 5.740084e-01 2.995109e-01
1846071600 6.253441e-01 1.695216e-01
1852571500 6.486977e-01 2.790289e-02
1859071400 6.404132e-01 -1.147450e-01
1865571300 5.991230e-01 -2.551895e-01
1872071200 5.277045e-01 -3.778418e-01
1878571100 4.338455e-01 -4.787229e-01
1885071000 3.206053e-01 -5.593600e-01
1891570900 1.947061e-01 -6.148987e-01
1898070800 6.008174e-02 -6.444655e-01
1904570700 -8.138794e-02 -6.450658e-01
1911070600 -2.243481e-01 -6.123504e-01
1917570500 -3.554343e-01 -5.455287e-01
1924070400 -4.665093e-01 -4.510495e-01
1930570300 -5.522390e-01 -3.368577e-01
1937070200 -6.121558e-01 -2.075160e-01
1943570100 -6.430280e-01 -6.986485e-02
1950070000 -6.435421e-01 7.755806e-02
1956569900 -6.122763e-01 2.159434e-01
1963069800 -5.468958e-01 3.474352e-01
1969569700 -4.557583e-01 4.546110e-01
1976069600 -3.454943e-01 5.386150e-01
1982569500 -2.238049e-01 5.960637e-01
1989069400 -9.619475e-02 6.290575e-01
1995569300 4.244279e-02 6.374523e-01
2002069200 1.806118e-01 6.176645e-01
2008569100 3.145165e-01 5.657127e-01
2015069000 4.327729e-01 4.842349e-01
2021568900 5.304307e-01 3.754119e-01
2028068800 5.990342e-01 2.500967e-01
2034568700 6.387620e-01 1.140479e-01
2041068600 6.493289e-01 -3.076344e-02
2047568500 6.282792e-01 -1.713511e-01
2054068400 5.726415e-01 -3.072221e-01
2060568300 4.861350e-01 -4.267027e-01
2067068200 3.761497e-01 -5.182085e-01
2073568100 2.562976e-01 -5.808639e-01
2080068000 1.276960e-01 -6.177809e-01
2086567900 -2.331540e-03 -6.321341e-01
2093067800 -1.383958e-01 -6.219379e-01
2099567700 -2.715189e-01 -5.830251e-01
2106067600 -3.965388e-01 -5.124734e-01
2112567500 -4.998778e-01 -4.140620e-01
2119067400 -5.784627e-01 -2.917338e-01
2125567300 -6.268075e-01 -1.593138e-01
2132067200 -6.463910e-01 -1.614684e-02
2138567100 -6.356052e-01 1.274340e-01
2145067000 -5.912176e-01 2.668021e-01
2151566900 -5.121762e-01 3.950100e-01
2158066800 -4.088325e-01 4.926944e-01
2164566700 -2.868117e-01 5.613224e-01
2171066600 -1.620596e-01 6.007813e-01
2177566500 -3.715378e-02 6.189354e-01
2184066400 9.191551e-02 6.162935e-01
2190566300 2.229927e-01 5.902708e-01
2197066200 3.542683e-01 5.316530e-01
2203566100 4.678649e-01 4.434239e-01
2210066000 5.555823e-01 3.292221e-01
2216565900 6.142366e-01 1.989756e-01
2223065800 6.436879e-01 6.064410e-02
2229565700 6.441760e-01 -8.088647e-02
2236065600 6.115606e-01 -2.245585e-01
2242565500 5.438700e-01 -3.583857e-01
2249065400 4.442498e-01 -4.681047e-01
2255565300 3.206186e-01 -5.463166e-01
2262065200 1.949658e-01 -5.902884e-01
2268565100 6.995994e-02 -6.105453e-01
2275065000 -5.759312e-02 -6.127295e-01
2281564900 -1.862088e-01 -5.946646e-01
2288064800 -3.131854e-01 -5.518394e-01
2294564700 -4.342189e-01 -4.744501e-01
2301064600 -5.308303e-01 -3.684263e-01
2307564500 -6.005407e-01 -2.416444e-01
2314064400 -6.375509e-01 -1.070278e-01
2320564300 -6.465600e-01 3.216974e-02
2327064200 -6.264742e-01 1.778296e-01
2333564100 -5.707239e-01 3.168237e-01
2340064000 -4.785299e-01 4.380428e-01
2346563900 -3.598174e-01 5.263312e-01
2353063800 -2.318478e-01 5.785512e-01
2359563700 -1.051826e-01 6.029075e-01
2366063600 1.806061e-02 6.086298e-01
2372563500 1.392571e-01 5.976946e-01
2379063400 2.672474e-01 5.638396e-01
2385563300 3.896043e-01 5.006510e-01
2392063200 4.974613e-01 4.026468e-01
2398563100 5.756634e-01 2.814437e-01
2405063000 6.229478e-01 1.469509e-01
2411562900 6.418619e-01 9.359444e-03
2418062800 6.314687e-01 -1.327960e-01
2424562700 5.916205e-01 -2.724930e-01
2431062600 5.133090e-01 -4.035436e-01
2437562500 4.018890e-01 -5.039897e-01
2444062400 2.727625e-01 -5.686252e-01
2450562300 1.438443e-01 -5.983997e-01
2457062200 2.018167e-02 -6.055123e-01
2463562100 -1.025358e-01 -5.976033e-01
2470062000 -2.248609e-01 -5.721212e-01
2476561900 -3.514257e-01 -5.186362e-01
2483061800 -4.654468e-01 -4.323303e-01
2489561700 -5.532662e-01 -3.185206e-01
2496061600 -6.099235e-01 -1.880593e-01
2502561500 -6.382929e-01 -4.888209e-02
2509061400 -6.379954e-01 8.838566e-02
2515561300 -6.080683e-01 2.293295e-01
2522061200 -5.422388e-01 3.641500e-01
2528561100 -4.377354e-01 4.797360e-01
2535061000 -3.123231e-01 5.542796e-01
2541560900 -1.793073e-01 5.939160e-01
2548060800 -5.338695e-02 6.058949e-01
2554560700 6.785795e-02 6.004824e-01
2561060600 1.872632e-01 5.808051e-01
2567560500 3.098292e-01 5.390512e-01
2574060400 4.258394e-01 4.665280e-01
2580560300 5.253731e-01 3.596336e-01
2587060200 5.916115e-01 2.316172e-01
2593560100 6.268349e-01 9.790404e-02
2600060000 6.347023e-01 -4.130774e-02
2606559900 6.153574e-01 -1.804714e-01
2613059800 5.656867e-01 -3.176660e-01
2619559700 4.778074e-01 -4.413238e-01
2626059600 3.571015e-01 -5.360946e-01
2632559500 2.217832e-01 -5.905250e-01
2639059400 8.902866e-02 -6.101825e-01
2645559300 -3.292588e-02 -6.070358e-01
2652059200 -1.545132e-01 -5.881024e-01
2658559100 -2.710442e-01 -5.510751e-01
2665059000 -3.905873e-01 -4.858328e-01
2671558900 -4.935831e-01 -3.901423e-01
2678058800 -5.695315e-01 -2.703885e-01
2684558700 -6.140102e-01 -1.359898e-01
2691058600 -6.309631e-01 -2.652605e-03
2697558500 -6.215986e-01 1.363610e-01
2704058400 -5.842168e-01 2.706795e-01
2710558300 -5.079935e-01 4.050088e-01
2717058200 -3.981729e-01 5.112169e-01
2723558100 -2.647689e-01 5.797303e-01
2730058000 -1.278206e-01 6.105704e-01
2736557900 2.106229e-03 6.119657e-01
2743057800 1.213307e-01 5.961301e-01
2749557700 2.418315e-01 5.633177e-01
2756057600 3.581805e-01 5.079009e-01
2762557500 4.644250e-01 4.225304e-01
2769057400 5.512097e-01 3.079565e-01
2775557300 6.030934e-01 1.809648e-01
2782057200 6.257925e-01 4.585032e-02
2788557100 6.225554e-01 -8.824119e-02
2795057000 5.937213e-01 -2.233250e-01
2801556900 5.340650e-01 -3.555774e-01
2808056800 4.404188e-01 -4.720939e-01
2814556700 3.152359e-01 -5.605110e-01
2821056600 1.744427e-01 -6.107247e-01
2827556500 3.758600e-02 -6.224233e-01
2834056400 -9.074594e-02 -6.108600e-01
2840556300 -2.110547e-01 -5.789783e-01
2847056200 -3.264145e-01 -5.265438e-01
2853556100 -4.345687e-01 -4.482180e-01
2860056000 -5.249779e-01 -3.405421e-01
2866555900 -5.845121e-01 -2.184797e-01
2873055800 -6.159670e-01 -8.377616e-02
2879555700 -6.196422e-01 4.643382e-02
2886055600 -5.981639e-01 1.825695e-01
2892555500 -5.515310e-01 3.107665e-01
2899055400 -4.741302e-01 4.303460e-01
2905555300 -3.603697e-01 5.319787e-01
2912055200 -2.295140e-01 5.969504e-01
2918555100 -8.674004e-02 6.254323e-01
2925055000 5.182154e-02 6.205599e-01
2931554900 1.769224e-01 5.916464e-01
2938054800 2.984281e-01 5.408417e-01
2944554700 4.077165e-01 4.681896e-01
2951054600 5.039634e-01 3.695275e-01
2957554500 5.714338e-01 2.522232e-01
2964054400 6.120033e-01 1.178901e-01
2970554300 6.202049e-01 -1.257364e-02
2977054200 6.034801e-01 -1.409652e-01
2983554100 5.631563e-01 -2.664637e-01
2990054000 4.972653e-01 -3.865354e-01
2996553900 4.013751e-01 -4.934637e-01
3003053800 2.743275e-01 -5.768276e-01
3009553700 1.341559e-01 -6.240159e-01
3016053600 -1.017992e-02 -6.342279e-01
3022553500 -1.475646e-01 -6.116899e-01
3029053400 -2.707463e-01 -5.639651e-01
3035553300 -3.844852e-01 -4.917539e-01
3042053200 -4.796715e-01 -3.996210e-01
3048553100 -5.545200e-01 -2.847976e-01
3055053000 -5.998219e-01 -1.569171e-01
3061552900 -6.154997e-01 -2.304481e-02
3068052800 -6.055252e-01 1.047108e-01
3074552700 -5.718007e-01 2.274187e-01
3081052600 -5.143513e-01 3.485128e-01
3087552500 -4.361642e-01 4.533833e-01
3094052400 -3.279508e-01 5.460337e-01
3100552300 -1.963470e-01 6.102710e-01
3107052200 -4.667838e-02 6.382691e-01
3113552100 1.003275e-01 6.273267e-01
3120052000 2.365279e-01 5.835597e-01
3126551900 3.572444e-01 5.128955e-01
3133051800 4.587676e-01 4.224050e-01
3139551700 5.384596e-01 3.119498e-01
3146051600 5.909441e-01 1.857491e-01
3152551500 6.139049e-01 5.494123e-02
3159051400 6.064064e-01 -7.128998e-02
3165551300 5.742770e-01 -1.932106e-01
3172051200 5.243007e-01 -3.058136e-01
3178551100 4.536356e-01 -4.103372e-01
3185051000 3.602643e-01 -5.063070e-01
3191550900 2.453270e-01 -5.835265e-01
3198050800 1.011820e-01 -6.331043e-01
3204550700 -5.210610e-02 -6.412695e-01
3211050600 -1.983470e-01 -6.087562e-01
3217550500 -3.281957e-01 -5.424712e-01
3224050400 -4.360641e-01 -4.512223e-01
3230550300 -5.200259e-01 -3.425143e-01
3237050200 -5.786950e-01 -2.200719e-01
3243550100 -6.087275e-01 -8.921486e-02
3250050000 -6.080948e-01 4.290863e-02
3256549900 -5.804870e-01 1.671728e-01
3263049800 -5.333540e-01 2.762361e-01
3269549700 -4.698516e-01 3.757971e-01
3276049600 -3.894356e-01 4.703655e-01
3282549500 -2.871541e-01 5.529808e-01
3289049400 -1.578260e-01 6.189670e-01
3295549300 -7.381123e-03 6.492236e-01
3302049200 1.503403e-01 6.336367e-01
3308549100 2.935985e-01 5.749906e-01
3315049000 4.106438e-01 4.867933e-01
3321548900 5.016469e-01 3.786594e-01
3328048800 5.663002e-01 2.566178e-01
3334548700 6.036487e-01 1.249277e-01
3341048600 6.102463e-01 -8.587261e-03
3347548500 5.857741e-01 -1.355003e-01
3354048400 5.384692e-01 -2.478232e-01
3360548300 4.793567e-01 -3.443062e-01
3367048200 4.054371e-01 -4.331006e-01
3373548100 3.185443e-01 -5.152416e-01
3380048000 2.062538e-01 -5.902274e-01
3386547900 6.535111e-02 -6.395138e-01
3393047800 -9.300423e-02 -6.477766e-01
3399547700 -2.491909e-01 -6.046848e-01
3406047600 -3.803121e-01 -5.221490e-01
3412547500 -4.810027e-01 -4.144472e-01
3419047400 -5.530626e-01 -2.918597e-01
3425547300 -5.977361e-01 -1.619762e-01
